<Qucs Dataset 0.0.15>
<indep X 10>
  +5.00000000000e+00
  +1.00000000000e+01
  +1.50000000000e+01
  +2.00000000000e+01
  +2.50000000000e+01
  +3.00000000000e+01
  +3.50000000000e+01
  +4.00000000000e+01
  +4.50000000000e+01
  +5.00000000000e+01
</indep>
<dep V1.I X>
  -1.64285714286e+00
  -9.58333333333e-01
  -6.76470588235e-01
  -5.22727272727e-01
  -4.25925925926e-01
  -3.59375000000e-01
  -3.10810810811e-01
  -2.73809523810e-01
  -2.44680851064e-01
  -2.21153846154e-01
</dep>
<dep Izeja.V X>
  +8.21428571429e+00
  +9.58333333333e+00
  +1.01470588235e+01
  +1.04545454545e+01
  +1.06481481481e+01
  +1.07812500000e+01
  +1.08783783784e+01
  +1.09523809524e+01
  +1.10106382979e+01
  +1.10576923077e+01
</dep>
<dep _net0.V X>
  +1.15000000000e+01
  +1.15000000000e+01
  +1.15000000000e+01
  +1.15000000000e+01
  +1.15000000000e+01
  +1.15000000000e+01
  +1.15000000000e+01
  +1.15000000000e+01
  +1.15000000000e+01
  +1.15000000000e+01
</dep>
